
T79C8 000:003 SEGGER J-Link V6.16f Log File (0001ms, 0004ms total)
T79C8 000:003 DLL Compiled: Jul  3 2017 15:57:26 (0001ms, 0004ms total)
T79C8 000:003 Logging started @ 2024-05-24 12:05 (0001ms, 0004ms total)
T79C8 000:004 JLINK_SetWarnOutHandler(...) (0000ms, 0004ms total)
T79C8 000:004 JLINK_OpenEx(...)
Firmware: J-Link V9 compiled May  7 2021 16:26:12
Hardware: V9.40
S/N: 69406420
Feature(s): RDI, GDB, FlashDL, FlashBP, JFlashWEBSRV Webserver running on local port 19080 (0019ms, 0023ms total)
T79C8 000:004   returns O.K. (0019ms, 0023ms total)
T79C8 000:023 JLINK_GetEmuCaps()  returns 0xB9FF7BBF (0000ms, 0023ms total)
T79C8 000:023 JLINK_TIF_GetAvailable(...) (0001ms, 0024ms total)
T79C8 000:024 JLINK_SetErrorOutHandler(...) (0000ms, 0024ms total)
T79C8 000:024 JLINK_ExecCommand("ProjectFile = "D:\Lith\program\07_Plantform\Git version\singleMotor\1¡¢LKS32MC03x_1Motor1R_code+Clib_R_V02_0_9a_AC5_classB\JLinkSettings.ini"", ...). C:\Program Files (x86)\SEGGER\JLink_V616f\JLinkDevices.xml evaluated successfully.Device "CORTEX-M0+" selected.  returns 0x00 (0102ms, 0126ms total)
T79C8 000:128 JLINK_ExecCommand("Device = LKS32MC037M6S8", ...). Device "CORTEX-M0+" selected.  returns 0x00 (0003ms, 0129ms total)
T79C8 000:131 JLINK_ExecCommand("DisableConnectionTimeout", ...).   returns 0x01 (0000ms, 0129ms total)
T79C8 000:131 JLINK_GetHardwareVersion()  returns 0x16F30 (0000ms, 0129ms total)
T79C8 000:131 JLINK_GetDLLVersion()  returns 61606 (0000ms, 0129ms total)
T79C8 000:131 JLINK_GetFirmwareString(...) (0000ms, 0129ms total)
T79C8 000:135 JLINK_GetDLLVersion()  returns 61606 (0000ms, 0129ms total)
T79C8 000:135 JLINK_GetCompileDateTime() (0000ms, 0129ms total)
T79C8 000:137 JLINK_GetFirmwareString(...) (0000ms, 0129ms total)
T79C8 000:140 JLINK_GetHardwareVersion()  returns 0x16F30 (0000ms, 0129ms total)
T79C8 000:152 JLINK_TIF_Select(JLINKARM_TIF_SWD)  returns 0x00 (0001ms, 0130ms total)
T79C8 000:153 JLINK_SetSpeed(5000) (0002ms, 0132ms total)
T79C8 000:155 JLINK_GetId() >0x10B TIF> >0x10F TIF> >0x10B TIF> >0x10F TIF> >0x10B TIF>Found SW-DP with ID 0x0BB11477 >0x0D TIF> >0x28 TIF> >0x0D TIF> >0x28 TIF>SWD speed too high. Reduced from 4000 kHz to 2700 kHz for stability >0x0D TIF> >0x28 TIF> >0x0D TIF> >0x28 TIF> >0x0D TIF> >0x21 TIF> >0x0D TIF> >0x28 TIF>Scanning APs, stopping at first AHB-AP found. >0x0D TIF> >0x28 TIF> >0x0D TIF> >0x21 TIF> >0x0D TIF> >0x21 TIF>AP[0] IDR: 0x04770021 (AHB-AP) >0x0D TIF> >0x28 TIF> >0x0D TIF> >0x21 TIF>
 >0x0D TIF> >0x21 TIF>AHB-AP ROM: 0xE00FF000 (Base addr. of first ROM table) >0x0D TIF> >0x28 TIF> >0x0D TIF> >0x28 TIF> >0x0D TIF> >0x28 TIF> >0x0D TIF> >0x21 TIF> >0x0D TIF> >0x21 TIF> >0x0D TIF> >0x28 TIF> >0x0D TIF> >0x21 TIF> >0x0D TIF> >0x21 TIF>CPUID reg: 0x410CC200. Implementer code: 0x41 (ARM)Found Cortex-M0 r0p0, Little endian. -- CPU_ReadMem(4 bytes @ 0xE000EDF0) -- CPU_ReadMem(4 bytes @ 0xE0002000)FPUnit: 2 code (BP) slots and 0 literal slots -- CPU_ReadMem(4 bytes @ 0xE000EDFC)
 -- CPU_ReadMem(4 bytes @ 0xE0001000) -- CPU_WriteMem(4 bytes @ 0xE0001000)CoreSight components:ROMTbl[0] @ E00FF000 -- CPU_ReadMem(16 bytes @ 0xE00FF000) -- CPU_ReadMem(16 bytes @ 0xE000EFF0) -- CPU_ReadMem(16 bytes @ 0xE000EFE0)ROMTbl[0][0]: E000E000, CID: B105E00D, PID: 000BB008 SCS -- CPU_ReadMem(16 bytes @ 0xE0001FF0) -- CPU_ReadMem(16 bytes @ 0xE0001FE0)ROMTbl[0][1]: E0001000, CID: B105E00D, PID: 000BB00A DWT -- CPU_ReadMem(16 bytes @ 0xE0002FF0) -- CPU_ReadMem(16 bytes @ 0xE0002FE0)
ROMTbl[0][2]: E0002000, CID: B105E00D, PID: 000BB00B FPB >0x0D TIF> >0x21 TIF>  returns 0x0BB11477 (0170ms, 0302ms total)
T79C8 000:325 JLINK_GetDLLVersion()  returns 61606 (0000ms, 0302ms total)
T79C8 000:325 JLINK_CORE_GetFound()  returns 0x60000FF (0000ms, 0302ms total)
T79C8 000:325 JLINK_GetDebugInfo(0x100 = JLINKARM_ROM_TABLE_ADDR_INDEX) -- Value=0xE00FF000  returns 0x00 (0000ms, 0302ms total)
T79C8 000:329 JLINK_GetDebugInfo(0x100 = JLINKARM_ROM_TABLE_ADDR_INDEX) -- Value=0xE00FF000  returns 0x00 (0000ms, 0302ms total)
T79C8 000:329 JLINK_GetDebugInfo(0x101 = JLINKARM_DEBUG_INFO_ETM_ADDR_INDEX) -- Value=0x00000000  returns 0x00 (0000ms, 0302ms total)
T79C8 000:329 JLINK_ReadMemEx(0xE0041FF0, 0x0010 Bytes, ..., Flags = 0x02000004) -- CPU_ReadMem(16 bytes @ 0xE0041FF0) - Data: 00 00 00 00 00 00 00 00 00 00 00 00 00 00 00 00  returns 0x10 (0001ms, 0303ms total)
T79C8 000:330 JLINK_GetDebugInfo(0x102 = JLINKARM_DEBUG_INFO_MTB_ADDR_INDEX) -- Value=0x00000000  returns 0x00 (0000ms, 0303ms total)
T79C8 000:330 JLINK_GetDebugInfo(0x103 = JLINKARM_DEBUG_INFO_TPIU_ADDR_INDEX) -- Value=0x00000000  returns 0x00 (0000ms, 0303ms total)
T79C8 000:331 JLINK_ReadMemEx(0xE0040FF0, 0x0010 Bytes, ..., Flags = 0x02000004) -- CPU_ReadMem(16 bytes @ 0xE0040FF0) - Data: 00 00 00 00 00 00 00 00 00 00 00 00 00 00 00 00  returns 0x10 (0000ms, 0304ms total)
T79C8 000:331 JLINK_GetDebugInfo(0x104 = JLINKARM_DEBUG_INFO_ITM_ADDR_INDEX) -- Value=0xE0000000  returns 0x00 (0000ms, 0304ms total)
T79C8 000:331 JLINK_GetDebugInfo(0x105 = JLINKARM_DEBUG_INFO_DWT_ADDR_INDEX) -- Value=0xE0001000  returns 0x00 (0001ms, 0305ms total)
T79C8 000:332 JLINK_GetDebugInfo(0x106 = JLINKARM_DEBUG_INFO_FPB_ADDR_INDEX) -- Value=0xE0002000  returns 0x00 (0000ms, 0305ms total)
T79C8 000:332 JLINK_GetDebugInfo(0x107 = JLINKARM_DEBUG_INFO_NVIC_ADDR_INDEX) -- Value=0xE000E000  returns 0x00 (0000ms, 0305ms total)
T79C8 000:332 JLINK_GetDebugInfo(0x10C = JLINKARM_DEBUG_INFO_DBG_ADDR_INDEX) -- Value=0xE000EDF0  returns 0x00 (0000ms, 0305ms total)
T79C8 000:332 JLINK_GetDebugInfo(0x01 = Unknown)  returns 0xFFFFFFFF (0000ms, 0305ms total)
T79C8 000:332 JLINK_GetDeviceFamily()  returns 6 (0000ms, 0305ms total)
T79C8 000:332 JLINK_ReadMemU32(0xE000ED00, 0x0001 Items, ...) -- CPU_ReadMem(4 bytes @ 0xE000ED00) - Data: 00 C2 0C 41  returns 0x01 (0000ms, 0305ms total)
T79C8 000:332 JLINK_GetDebugInfo(0x10F = JLINKARM_DEBUG_INFO_HAS_CORTEX_M_SECURITY_EXT_INDEX) -- Value=0x00000000  returns 0x00 (0000ms, 0305ms total)
T79C8 000:332 JLINK_SetResetType(JLINKARM_CM3_RESET_TYPE_NORMAL)  returns JLINKARM_CM3_RESET_TYPE_NORMAL (0000ms, 0305ms total)
T79C8 000:332 JLINK_Reset() -- CPU is running -- CPU_WriteMem(4 bytes @ 0xE000EDF0) -- CPU is running -- CPU_WriteMem(4 bytes @ 0xE000EDFC)Reset: Halt core after reset via DEMCR.VC_CORERESET. >0x35 TIF>Reset: Reset device via AIRCR.SYSRESETREQ. -- CPU is running -- CPU_WriteMem(4 bytes @ 0xE000ED0C) >0x0D TIF> >0x28 TIF> -- CPU_ReadMem(4 bytes @ 0xE000EDF0) -- CPU_ReadMem(4 bytes @ 0xE000EDF0) -- CPU is running -- CPU_WriteMem(4 bytes @ 0xE000EDF0) -- CPU is running -- CPU_WriteMem(4 bytes @ 0xE000EDFC)
 -- CPU_ReadMem(4 bytes @ 0xE000EDF0) -- CPU_WriteMem(4 bytes @ 0xE0002000) -- CPU_ReadMem(4 bytes @ 0xE000EDFC) -- CPU_ReadMem(4 bytes @ 0xE0001000) -- CPU_WriteMem(4 bytes @ 0xE0001000) (0079ms, 0384ms total)
T79C8 000:411 JLINK_Halt()  returns 0x00 (0000ms, 0384ms total)
T79C8 000:411 JLINK_ReadMemU32(0xE000EDF0, 0x0001 Items, ...) -- CPU_ReadMem(4 bytes @ 0xE000EDF0) - Data: 03 00 03 00  returns 0x01 (0002ms, 0386ms total)
T79C8 000:413 JLINK_WriteU32(0xE000EDF0, 0xA05F0003) -- CPU_WriteMem(4 bytes @ 0xE000EDF0)  returns 0x00 (0001ms, 0387ms total)
T79C8 000:414 JLINK_WriteU32(0xE000EDFC, 0x01000000) -- CPU_WriteMem(4 bytes @ 0xE000EDFC)  returns 0x00 (0001ms, 0388ms total)
T79C8 000:429 JLINK_GetHWStatus(...)  returns 0x00 (0000ms, 0388ms total)
T79C8 000:438 JLINK_GetNumBPUnits(Type = 0xFFFFFF00)  returns 0x02 (0000ms, 0388ms total)
T79C8 000:438 JLINK_GetNumBPUnits(Type = 0xF0)  returns 0x2000 (0000ms, 0388ms total)
T79C8 000:438 JLINK_GetNumWPUnits()  returns 0x02 (0000ms, 0388ms total)
T79C8 000:447 JLINK_GetSpeed()  returns 0x960 (0000ms, 0388ms total)
T79C8 000:452 JLINK_ReadMemU32(0xE000E004, 0x0001 Items, ...) -- CPU_ReadMem(4 bytes @ 0xE000E004) - Data: 00 00 00 00  returns 0x01 (0001ms, 0389ms total)
T79C8 000:453 JLINK_Halt()  returns 0x00 (0000ms, 0389ms total)
T79C8 000:453 JLINK_IsHalted()  returns TRUE (0000ms, 0389ms total)
T79C8 000:455 JLINK_WriteMem(0x20000000, 0x014C Bytes, ...) - Data: 00 BE 0A E0 0D 78 2D 06 68 40 08 24 40 00 00 D3 ... -- CPU_WriteMem(332 bytes @ 0x20000000)  returns 0x14C (0004ms, 0393ms total)
T79C8 000:459 JLINK_WriteReg(R0, 0x00000000)  returns 0x00 (0000ms, 0393ms total)
T79C8 000:459 JLINK_WriteReg(R1, 0x00B71B00)  returns 0x00 (0000ms, 0393ms total)
T79C8 000:459 JLINK_WriteReg(R2, 0x00000001)  returns 0x00 (0000ms, 0393ms total)
T79C8 000:459 JLINK_WriteReg(R3, 0x00000000)  returns 0x00 (0000ms, 0393ms total)
T79C8 000:460 JLINK_WriteReg(R4, 0x00000000)  returns 0x00 (0000ms, 0393ms total)
T79C8 000:460 JLINK_WriteReg(R5, 0x00000000)  returns 0x00 (0000ms, 0393ms total)
T79C8 000:460 JLINK_WriteReg(R6, 0x00000000)  returns 0x00 (0000ms, 0393ms total)
T79C8 000:460 JLINK_WriteReg(R7, 0x00000000)  returns 0x00 (0000ms, 0393ms total)
T79C8 000:460 JLINK_WriteReg(R8, 0x00000000)  returns 0x00 (0000ms, 0393ms total)
T79C8 000:460 JLINK_WriteReg(R9, 0x20000148)  returns 0x00 (0000ms, 0393ms total)
T79C8 000:460 JLINK_WriteReg(R10, 0x00000000)  returns 0x00 (0000ms, 0393ms total)
T79C8 000:460 JLINK_WriteReg(R11, 0x00000000)  returns 0x00 (0000ms, 0393ms total)
T79C8 000:460 JLINK_WriteReg(R12, 0x00000000)  returns 0x00 (0000ms, 0393ms total)
T79C8 000:460 JLINK_WriteReg(R13 (SP), 0x20001000)  returns 0x00 (0000ms, 0393ms total)
T79C8 000:460 JLINK_WriteReg(R14, 0x20000001)  returns 0x00 (0000ms, 0393ms total)
T79C8 000:460 JLINK_WriteReg(R15 (PC), 0x20000038)  returns 0x00 (0000ms, 0393ms total)
T79C8 000:460 JLINK_WriteReg(XPSR, 0x01000000)  returns 0x00 (0000ms, 0393ms total)
T79C8 000:460 JLINK_WriteReg(MSP, 0x20001000)  returns 0x00 (0000ms, 0393ms total)
T79C8 000:460 JLINK_WriteReg(PSP, 0x20001000)  returns 0x00 (0000ms, 0393ms total)
T79C8 000:460 JLINK_WriteReg(CFBP, 0x00000000)  returns 0x00 (0000ms, 0393ms total)
T79C8 000:460 JLINK_SetBPEx(Addr = 0x20000000, Type = 0xFFFFFFF2) -- CPU_ReadMem(4 bytes @ 0x20000000) -- CPU_WriteMem(4 bytes @ 0x20000000) -- CPU_ReadMem(4 bytes @ 0x20000000) -- CPU_WriteMem(4 bytes @ 0x20000000) -- CPU_ReadMem(2 bytes @ 0x20000000)  returns 0x00000001 (0002ms, 0395ms total)
T79C8 000:462 JLINK_Go() -- CPU_WriteMem(2 bytes @ 0x20000000) -- CPU_ReadMem(4 bytes @ 0xE0001000) -- CPU_WriteMem(4 bytes @ 0xE0001000) -- CPU_WriteMem(4 bytes @ 0xE0002008) -- CPU_WriteMem(4 bytes @ 0xE000200C) -- CPU_WriteMem(4 bytes @ 0xE0001004) (0007ms, 0402ms total)
T79C8 000:469 JLINK_IsHalted() -- CPU_ReadMem(2 bytes @ 0x20000000)  returns TRUE (0005ms, 0407ms total)
T79C8 000:474 JLINK_ReadReg(R15 (PC))  returns 0x20000000 (0000ms, 0402ms total)
T79C8 000:474 JLINK_ClrBPEx(BPHandle = 0x00000001)  returns 0x00 (0000ms, 0402ms total)
T79C8 000:474 JLINK_ReadReg(R0)  returns 0x00000000 (0000ms, 0402ms total)
T79C8 000:474 JLINK_WriteReg(R0, 0x00000000)  returns 0x00 (0001ms, 0403ms total)
T79C8 000:475 JLINK_WriteReg(R1, 0x00B71B00)  returns 0x00 (0000ms, 0403ms total)
T79C8 000:475 JLINK_WriteReg(R2, 0x00000001)  returns 0x00 (0000ms, 0403ms total)
T79C8 000:475 JLINK_WriteReg(R3, 0x00000000)  returns 0x00 (0000ms, 0403ms total)
T79C8 000:475 JLINK_WriteReg(R4, 0x00000000)  returns 0x00 (0000ms, 0403ms total)
T79C8 000:475 JLINK_WriteReg(R5, 0x00000000)  returns 0x00 (0000ms, 0403ms total)
T79C8 000:475 JLINK_WriteReg(R6, 0x00000000)  returns 0x00 (0000ms, 0403ms total)
T79C8 000:475 JLINK_WriteReg(R7, 0x00000000)  returns 0x00 (0000ms, 0403ms total)
T79C8 000:475 JLINK_WriteReg(R8, 0x00000000)  returns 0x00 (0000ms, 0403ms total)
T79C8 000:475 JLINK_WriteReg(R9, 0x20000148)  returns 0x00 (0000ms, 0403ms total)
T79C8 000:475 JLINK_WriteReg(R10, 0x00000000)  returns 0x00 (0000ms, 0403ms total)
T79C8 000:475 JLINK_WriteReg(R11, 0x00000000)  returns 0x00 (0000ms, 0403ms total)
T79C8 000:475 JLINK_WriteReg(R12, 0x00000000)  returns 0x00 (0000ms, 0403ms total)
T79C8 000:475 JLINK_WriteReg(R13 (SP), 0x20001000)  returns 0x00 (0000ms, 0403ms total)
T79C8 000:475 JLINK_WriteReg(R14, 0x20000001)  returns 0x00 (0000ms, 0403ms total)
T79C8 000:475 JLINK_WriteReg(R15 (PC), 0x20000040)  returns 0x00 (0000ms, 0403ms total)
T79C8 000:475 JLINK_WriteReg(XPSR, 0x01000000)  returns 0x00 (0000ms, 0403ms total)
T79C8 000:475 JLINK_WriteReg(MSP, 0x20001000)  returns 0x00 (0000ms, 0403ms total)
T79C8 000:475 JLINK_WriteReg(PSP, 0x20001000)  returns 0x00 (0000ms, 0403ms total)
T79C8 000:475 JLINK_WriteReg(CFBP, 0x00000000)  returns 0x00 (0000ms, 0403ms total)
T79C8 000:475 JLINK_SetBPEx(Addr = 0x20000000, Type = 0xFFFFFFF2)  returns 0x00000002 (0000ms, 0403ms total)
T79C8 000:475 JLINK_Go() -- CPU_ReadMem(4 bytes @ 0xE0001000) -- CPU_WriteMem(4 bytes @ 0xE0001000) (0003ms, 0406ms total)
T79C8 000:478 JLINK_IsHalted() -- CPU_ReadMem(2 bytes @ 0x20000000)  returns TRUE (0039ms, 0445ms total)
T79C8 000:517 JLINK_ReadReg(R15 (PC))  returns 0x20000000 (0000ms, 0406ms total)
T79C8 000:517 JLINK_ClrBPEx(BPHandle = 0x00000002)  returns 0x00 (0000ms, 0406ms total)
T79C8 000:517 JLINK_ReadReg(R0)  returns 0x00000000 (0000ms, 0406ms total)
T79C8 000:569 JLINK_WriteReg(R0, 0x00000001)  returns 0x00 (0000ms, 0406ms total)
T79C8 000:569 JLINK_WriteReg(R1, 0x00B71B00)  returns 0x00 (0000ms, 0406ms total)
T79C8 000:569 JLINK_WriteReg(R2, 0x00000001)  returns 0x00 (0000ms, 0406ms total)
T79C8 000:569 JLINK_WriteReg(R3, 0x00000000)  returns 0x00 (0000ms, 0406ms total)
T79C8 000:569 JLINK_WriteReg(R4, 0x00000000)  returns 0x00 (0000ms, 0406ms total)
T79C8 000:569 JLINK_WriteReg(R5, 0x00000000)  returns 0x00 (0000ms, 0406ms total)
T79C8 000:569 JLINK_WriteReg(R6, 0x00000000)  returns 0x00 (0001ms, 0407ms total)
T79C8 000:570 JLINK_WriteReg(R7, 0x00000000)  returns 0x00 (0000ms, 0407ms total)
T79C8 000:570 JLINK_WriteReg(R8, 0x00000000)  returns 0x00 (0000ms, 0407ms total)
T79C8 000:570 JLINK_WriteReg(R9, 0x20000148)  returns 0x00 (0000ms, 0407ms total)
T79C8 000:570 JLINK_WriteReg(R10, 0x00000000)  returns 0x00 (0000ms, 0407ms total)
T79C8 000:570 JLINK_WriteReg(R11, 0x00000000)  returns 0x00 (0000ms, 0407ms total)
T79C8 000:570 JLINK_WriteReg(R12, 0x00000000)  returns 0x00 (0000ms, 0407ms total)
T79C8 000:570 JLINK_WriteReg(R13 (SP), 0x20001000)  returns 0x00 (0000ms, 0407ms total)
T79C8 000:570 JLINK_WriteReg(R14, 0x20000001)  returns 0x00 (0000ms, 0407ms total)
T79C8 000:570 JLINK_WriteReg(R15 (PC), 0x2000003C)  returns 0x00 (0000ms, 0407ms total)
T79C8 000:570 JLINK_WriteReg(XPSR, 0x01000000)  returns 0x00 (0000ms, 0407ms total)
T79C8 000:570 JLINK_WriteReg(MSP, 0x20001000)  returns 0x00 (0000ms, 0407ms total)
T79C8 000:570 JLINK_WriteReg(PSP, 0x20001000)  returns 0x00 (0000ms, 0407ms total)
T79C8 000:570 JLINK_WriteReg(CFBP, 0x00000000)  returns 0x00 (0000ms, 0407ms total)
T79C8 000:570 JLINK_SetBPEx(Addr = 0x20000000, Type = 0xFFFFFFF2)  returns 0x00000003 (0000ms, 0407ms total)
T79C8 000:570 JLINK_Go() -- CPU_ReadMem(4 bytes @ 0xE0001000) -- CPU_WriteMem(4 bytes @ 0xE0001000) (0003ms, 0410ms total)
T79C8 000:573 JLINK_IsHalted() -- CPU_ReadMem(2 bytes @ 0x20000000)  returns TRUE (0005ms, 0415ms total)
T79C8 000:578 JLINK_ReadReg(R15 (PC))  returns 0x20000000 (0000ms, 0410ms total)
T79C8 000:578 JLINK_ClrBPEx(BPHandle = 0x00000003)  returns 0x00 (0000ms, 0410ms total)
T79C8 000:578 JLINK_ReadReg(R0)  returns 0x00000000 (0000ms, 0410ms total)
T79C8 000:583 JLINK_WriteMem(0x20000000, 0x014C Bytes, ...) - Data: 00 BE 0A E0 0D 78 2D 06 68 40 08 24 40 00 00 D3 ... -- CPU_WriteMem(332 bytes @ 0x20000000)  returns 0x14C (0003ms, 0413ms total)
T79C8 000:586 JLINK_WriteReg(R0, 0x00000000)  returns 0x00 (0000ms, 0413ms total)
T79C8 000:586 JLINK_WriteReg(R1, 0x00B71B00)  returns 0x00 (0000ms, 0413ms total)
T79C8 000:586 JLINK_WriteReg(R2, 0x00000002)  returns 0x00 (0000ms, 0413ms total)
T79C8 000:586 JLINK_WriteReg(R3, 0x00000000)  returns 0x00 (0000ms, 0413ms total)
T79C8 000:586 JLINK_WriteReg(R4, 0x00000000)  returns 0x00 (0000ms, 0413ms total)
T79C8 000:586 JLINK_WriteReg(R5, 0x00000000)  returns 0x00 (0000ms, 0413ms total)
T79C8 000:586 JLINK_WriteReg(R6, 0x00000000)  returns 0x00 (0000ms, 0413ms total)
T79C8 000:586 JLINK_WriteReg(R7, 0x00000000)  returns 0x00 (0000ms, 0413ms total)
T79C8 000:586 JLINK_WriteReg(R8, 0x00000000)  returns 0x00 (0000ms, 0413ms total)
T79C8 000:586 JLINK_WriteReg(R9, 0x20000148)  returns 0x00 (0000ms, 0413ms total)
T79C8 000:586 JLINK_WriteReg(R10, 0x00000000)  returns 0x00 (0000ms, 0413ms total)
T79C8 000:586 JLINK_WriteReg(R11, 0x00000000)  returns 0x00 (0000ms, 0413ms total)
T79C8 000:586 JLINK_WriteReg(R12, 0x00000000)  returns 0x00 (0000ms, 0413ms total)
T79C8 000:586 JLINK_WriteReg(R13 (SP), 0x20001000)  returns 0x00 (0000ms, 0413ms total)
T79C8 000:586 JLINK_WriteReg(R14, 0x20000001)  returns 0x00 (0000ms, 0413ms total)
T79C8 000:586 JLINK_WriteReg(R15 (PC), 0x20000038)  returns 0x00 (0000ms, 0413ms total)
T79C8 000:586 JLINK_WriteReg(XPSR, 0x01000000)  returns 0x00 (0000ms, 0413ms total)
T79C8 000:586 JLINK_WriteReg(MSP, 0x20001000)  returns 0x00 (0000ms, 0413ms total)
T79C8 000:586 JLINK_WriteReg(PSP, 0x20001000)  returns 0x00 (0000ms, 0413ms total)
T79C8 000:586 JLINK_WriteReg(CFBP, 0x00000000)  returns 0x00 (0000ms, 0413ms total)
T79C8 000:586 JLINK_SetBPEx(Addr = 0x20000000, Type = 0xFFFFFFF2) -- CPU_ReadMem(4 bytes @ 0x20000000) -- CPU_WriteMem(4 bytes @ 0x20000000) -- CPU_ReadMem(4 bytes @ 0x20000000) -- CPU_WriteMem(4 bytes @ 0x20000000) -- CPU_ReadMem(2 bytes @ 0x20000000)  returns 0x00000004 (0003ms, 0416ms total)
T79C8 000:589 JLINK_Go() -- CPU_WriteMem(2 bytes @ 0x20000000) -- CPU_ReadMem(4 bytes @ 0xE0001000) -- CPU_WriteMem(4 bytes @ 0xE0001000) (0004ms, 0420ms total)
T79C8 000:593 JLINK_IsHalted() -- CPU_ReadMem(2 bytes @ 0x20000000)  returns TRUE (0005ms, 0425ms total)
T79C8 000:598 JLINK_ReadReg(R15 (PC))  returns 0x20000000 (0000ms, 0420ms total)
T79C8 000:598 JLINK_ClrBPEx(BPHandle = 0x00000004)  returns 0x00 (0000ms, 0420ms total)
T79C8 000:598 JLINK_ReadReg(R0)  returns 0x00000000 (0000ms, 0420ms total)
T79C8 000:599 JLINK_WriteMem(0x2000014C, 0x0200 Bytes, ...) - Data: E8 0E 00 20 D9 00 00 00 E7 00 00 00 BD 20 00 00 ... -- CPU_WriteMem(512 bytes @ 0x2000014C)  returns 0x200 (0005ms, 0425ms total)
T79C8 000:604 JLINK_WriteReg(R0, 0x00000000)  returns 0x00 (0000ms, 0425ms total)
T79C8 000:604 JLINK_WriteReg(R1, 0x00000200)  returns 0x00 (0000ms, 0425ms total)
T79C8 000:604 JLINK_WriteReg(R2, 0x2000014C)  returns 0x00 (0000ms, 0425ms total)
T79C8 000:604 JLINK_WriteReg(R3, 0x00000000)  returns 0x00 (0000ms, 0425ms total)
T79C8 000:604 JLINK_WriteReg(R4, 0x00000000)  returns 0x00 (0000ms, 0425ms total)
T79C8 000:604 JLINK_WriteReg(R5, 0x00000000)  returns 0x00 (0000ms, 0425ms total)
T79C8 000:604 JLINK_WriteReg(R6, 0x00000000)  returns 0x00 (0000ms, 0425ms total)
T79C8 000:604 JLINK_WriteReg(R7, 0x00000000)  returns 0x00 (0000ms, 0425ms total)
T79C8 000:604 JLINK_WriteReg(R8, 0x00000000)  returns 0x00 (0000ms, 0425ms total)
T79C8 000:604 JLINK_WriteReg(R9, 0x20000148)  returns 0x00 (0000ms, 0425ms total)
T79C8 000:604 JLINK_WriteReg(R10, 0x00000000)  returns 0x00 (0000ms, 0425ms total)
T79C8 000:604 JLINK_WriteReg(R11, 0x00000000)  returns 0x00 (0000ms, 0425ms total)
T79C8 000:604 JLINK_WriteReg(R12, 0x00000000)  returns 0x00 (0000ms, 0425ms total)
T79C8 000:604 JLINK_WriteReg(R13 (SP), 0x20001000)  returns 0x00 (0000ms, 0425ms total)
T79C8 000:604 JLINK_WriteReg(R14, 0x20000001)  returns 0x00 (0000ms, 0425ms total)
T79C8 000:604 JLINK_WriteReg(R15 (PC), 0x200000D8)  returns 0x00 (0000ms, 0425ms total)
T79C8 000:604 JLINK_WriteReg(XPSR, 0x01000000)  returns 0x00 (0000ms, 0425ms total)
T79C8 000:604 JLINK_WriteReg(MSP, 0x20001000)  returns 0x00 (0000ms, 0425ms total)
T79C8 000:604 JLINK_WriteReg(PSP, 0x20001000)  returns 0x00 (0000ms, 0425ms total)
T79C8 000:604 JLINK_WriteReg(CFBP, 0x00000000)  returns 0x00 (0000ms, 0425ms total)
T79C8 000:604 JLINK_SetBPEx(Addr = 0x20000000, Type = 0xFFFFFFF2)  returns 0x00000005 (0000ms, 0425ms total)
T79C8 000:604 JLINK_Go() -- CPU_ReadMem(4 bytes @ 0xE0001000) -- CPU_WriteMem(4 bytes @ 0xE0001000) (0003ms, 0428ms total)
T79C8 000:607 JLINK_IsHalted()  returns FALSE (0001ms, 0429ms total)
T79C8 000:647 JLINK_IsHalted() -- CPU_ReadMem(2 bytes @ 0x20000000)  returns TRUE (0004ms, 0432ms total)
T79C8 000:651 JLINK_ReadReg(R15 (PC))  returns 0x20000000 (0000ms, 0428ms total)
T79C8 000:651 JLINK_ClrBPEx(BPHandle = 0x00000005)  returns 0x00 (0000ms, 0428ms total)
T79C8 000:651 JLINK_ReadReg(R0)  returns 0x00000000 (0000ms, 0428ms total)
T79C8 000:652 JLINK_WriteMem(0x2000014C, 0x0200 Bytes, ...) - Data: 01 9B 80 18 00 90 59 41 02 98 01 91 10 30 02 90 ... -- CPU_WriteMem(512 bytes @ 0x2000014C)  returns 0x200 (0004ms, 0432ms total)
T79C8 000:656 JLINK_WriteReg(R0, 0x00000200)  returns 0x00 (0000ms, 0432ms total)
T79C8 000:656 JLINK_WriteReg(R1, 0x00000200)  returns 0x00 (0000ms, 0432ms total)
T79C8 000:656 JLINK_WriteReg(R2, 0x2000014C)  returns 0x00 (0000ms, 0432ms total)
T79C8 000:656 JLINK_WriteReg(R3, 0x00000000)  returns 0x00 (0000ms, 0432ms total)
T79C8 000:656 JLINK_WriteReg(R4, 0x00000000)  returns 0x00 (0000ms, 0432ms total)
T79C8 000:656 JLINK_WriteReg(R5, 0x00000000)  returns 0x00 (0000ms, 0432ms total)
T79C8 000:656 JLINK_WriteReg(R6, 0x00000000)  returns 0x00 (0000ms, 0432ms total)
T79C8 000:656 JLINK_WriteReg(R7, 0x00000000)  returns 0x00 (0000ms, 0432ms total)
T79C8 000:656 JLINK_WriteReg(R8, 0x00000000)  returns 0x00 (0001ms, 0433ms total)
T79C8 000:657 JLINK_WriteReg(R9, 0x20000148)  returns 0x00 (0000ms, 0433ms total)
T79C8 000:657 JLINK_WriteReg(R10, 0x00000000)  returns 0x00 (0000ms, 0433ms total)
T79C8 000:657 JLINK_WriteReg(R11, 0x00000000)  returns 0x00 (0000ms, 0433ms total)
T79C8 000:657 JLINK_WriteReg(R12, 0x00000000)  returns 0x00 (0000ms, 0433ms total)
T79C8 000:657 JLINK_WriteReg(R13 (SP), 0x20001000)  returns 0x00 (0000ms, 0433ms total)
T79C8 000:657 JLINK_WriteReg(R14, 0x20000001)  returns 0x00 (0000ms, 0433ms total)
T79C8 000:657 JLINK_WriteReg(R15 (PC), 0x200000D8)  returns 0x00 (0000ms, 0433ms total)
T79C8 000:657 JLINK_WriteReg(XPSR, 0x01000000)  returns 0x00 (0000ms, 0433ms total)
T79C8 000:657 JLINK_WriteReg(MSP, 0x20001000)  returns 0x00 (0000ms, 0433ms total)
T79C8 000:657 JLINK_WriteReg(PSP, 0x20001000)  returns 0x00 (0000ms, 0433ms total)
T79C8 000:657 JLINK_WriteReg(CFBP, 0x00000000)  returns 0x00 (0000ms, 0433ms total)
T79C8 000:657 JLINK_SetBPEx(Addr = 0x20000000, Type = 0xFFFFFFF2)  returns 0x00000006 (0000ms, 0433ms total)
T79C8 000:657 JLINK_Go() -- CPU_ReadMem(4 bytes @ 0xE0001000) -- CPU_WriteMem(4 bytes @ 0xE0001000) (0003ms, 0436ms total)
T79C8 000:660 JLINK_IsHalted()  returns FALSE (0003ms, 0439ms total)
T79C8 000:665 JLINK_IsHalted()  returns FALSE (0000ms, 0436ms total)
T79C8 000:667 JLINK_IsHalted() -- CPU_ReadMem(2 bytes @ 0x20000000)  returns TRUE (0004ms, 0440ms total)
T79C8 000:671 JLINK_ReadReg(R15 (PC))  returns 0x20000000 (0000ms, 0436ms total)
T79C8 000:671 JLINK_ClrBPEx(BPHandle = 0x00000006)  returns 0x00 (0000ms, 0436ms total)
T79C8 000:671 JLINK_ReadReg(R0)  returns 0x00000000 (0000ms, 0436ms total)
T79C8 000:671 JLINK_WriteMem(0x2000014C, 0x0200 Bytes, ...) - Data: 09 01 08 43 A1 7A 09 02 08 43 80 B2 68 65 61 8A ... -- CPU_WriteMem(512 bytes @ 0x2000014C)  returns 0x200 (0005ms, 0441ms total)
T79C8 000:676 JLINK_WriteReg(R0, 0x00000400)  returns 0x00 (0000ms, 0441ms total)
T79C8 000:676 JLINK_WriteReg(R1, 0x00000200)  returns 0x00 (0000ms, 0441ms total)
T79C8 000:676 JLINK_WriteReg(R2, 0x2000014C)  returns 0x00 (0000ms, 0441ms total)
T79C8 000:676 JLINK_WriteReg(R3, 0x00000000)  returns 0x00 (0000ms, 0441ms total)
T79C8 000:676 JLINK_WriteReg(R4, 0x00000000)  returns 0x00 (0000ms, 0441ms total)
T79C8 000:676 JLINK_WriteReg(R5, 0x00000000)  returns 0x00 (0000ms, 0441ms total)
T79C8 000:676 JLINK_WriteReg(R6, 0x00000000)  returns 0x00 (0000ms, 0441ms total)
T79C8 000:676 JLINK_WriteReg(R7, 0x00000000)  returns 0x00 (0000ms, 0441ms total)
T79C8 000:676 JLINK_WriteReg(R8, 0x00000000)  returns 0x00 (0000ms, 0441ms total)
T79C8 000:676 JLINK_WriteReg(R9, 0x20000148)  returns 0x00 (0000ms, 0441ms total)
T79C8 000:676 JLINK_WriteReg(R10, 0x00000000)  returns 0x00 (0000ms, 0441ms total)
T79C8 000:676 JLINK_WriteReg(R11, 0x00000000)  returns 0x00 (0000ms, 0441ms total)
T79C8 000:676 JLINK_WriteReg(R12, 0x00000000)  returns 0x00 (0000ms, 0441ms total)
T79C8 000:676 JLINK_WriteReg(R13 (SP), 0x20001000)  returns 0x00 (0000ms, 0441ms total)
T79C8 000:676 JLINK_WriteReg(R14, 0x20000001)  returns 0x00 (0000ms, 0441ms total)
T79C8 000:676 JLINK_WriteReg(R15 (PC), 0x200000D8)  returns 0x00 (0000ms, 0441ms total)
T79C8 000:676 JLINK_WriteReg(XPSR, 0x01000000)  returns 0x00 (0000ms, 0441ms total)
T79C8 000:676 JLINK_WriteReg(MSP, 0x20001000)  returns 0x00 (0000ms, 0441ms total)
T79C8 000:676 JLINK_WriteReg(PSP, 0x20001000)  returns 0x00 (0000ms, 0441ms total)
T79C8 000:676 JLINK_WriteReg(CFBP, 0x00000000)  returns 0x00 (0000ms, 0441ms total)
T79C8 000:676 JLINK_SetBPEx(Addr = 0x20000000, Type = 0xFFFFFFF2)  returns 0x00000007 (0000ms, 0441ms total)
T79C8 000:676 JLINK_Go() -- CPU_ReadMem(4 bytes @ 0xE0001000) -- CPU_WriteMem(4 bytes @ 0xE0001000) (0004ms, 0445ms total)
T79C8 000:680 JLINK_IsHalted()  returns FALSE (0001ms, 0446ms total)
T79C8 000:683 JLINK_IsHalted()  returns FALSE (0000ms, 0445ms total)
T79C8 000:685 JLINK_IsHalted()  returns FALSE (0000ms, 0445ms total)
T79C8 000:687 JLINK_IsHalted() -- CPU_ReadMem(2 bytes @ 0x20000000)  returns TRUE (0004ms, 0449ms total)
T79C8 000:691 JLINK_ReadReg(R15 (PC))  returns 0x20000000 (0000ms, 0445ms total)
T79C8 000:691 JLINK_ClrBPEx(BPHandle = 0x00000007)  returns 0x00 (0000ms, 0445ms total)
T79C8 000:691 JLINK_ReadReg(R0)  returns 0x00000000 (0000ms, 0445ms total)
T79C8 000:692 JLINK_WriteMem(0x2000014C, 0x0200 Bytes, ...) - Data: 06 23 CB 5E 00 14 93 42 08 DD 00 28 00 DA 40 42 ... -- CPU_WriteMem(512 bytes @ 0x2000014C)  returns 0x200 (0005ms, 0450ms total)
T79C8 000:697 JLINK_WriteReg(R0, 0x00000600)  returns 0x00 (0000ms, 0450ms total)
T79C8 000:697 JLINK_WriteReg(R1, 0x00000200)  returns 0x00 (0000ms, 0450ms total)
T79C8 000:697 JLINK_WriteReg(R2, 0x2000014C)  returns 0x00 (0000ms, 0450ms total)
T79C8 000:697 JLINK_WriteReg(R3, 0x00000000)  returns 0x00 (0000ms, 0450ms total)
T79C8 000:697 JLINK_WriteReg(R4, 0x00000000)  returns 0x00 (0001ms, 0451ms total)
T79C8 000:698 JLINK_WriteReg(R5, 0x00000000)  returns 0x00 (0000ms, 0451ms total)
T79C8 000:698 JLINK_WriteReg(R6, 0x00000000)  returns 0x00 (0000ms, 0451ms total)
T79C8 000:698 JLINK_WriteReg(R7, 0x00000000)  returns 0x00 (0000ms, 0451ms total)
T79C8 000:698 JLINK_WriteReg(R8, 0x00000000)  returns 0x00 (0000ms, 0451ms total)
T79C8 000:698 JLINK_WriteReg(R9, 0x20000148)  returns 0x00 (0000ms, 0451ms total)
T79C8 000:698 JLINK_WriteReg(R10, 0x00000000)  returns 0x00 (0000ms, 0451ms total)
T79C8 000:698 JLINK_WriteReg(R11, 0x00000000)  returns 0x00 (0000ms, 0451ms total)
T79C8 000:698 JLINK_WriteReg(R12, 0x00000000)  returns 0x00 (0000ms, 0451ms total)
T79C8 000:698 JLINK_WriteReg(R13 (SP), 0x20001000)  returns 0x00 (0000ms, 0451ms total)
T79C8 000:698 JLINK_WriteReg(R14, 0x20000001)  returns 0x00 (0000ms, 0451ms total)
T79C8 000:698 JLINK_WriteReg(R15 (PC), 0x200000D8)  returns 0x00 (0000ms, 0451ms total)
T79C8 000:698 JLINK_WriteReg(XPSR, 0x01000000)  returns 0x00 (0000ms, 0451ms total)
T79C8 000:698 JLINK_WriteReg(MSP, 0x20001000)  returns 0x00 (0000ms, 0451ms total)
T79C8 000:698 JLINK_WriteReg(PSP, 0x20001000)  returns 0x00 (0000ms, 0451ms total)
T79C8 000:698 JLINK_WriteReg(CFBP, 0x00000000)  returns 0x00 (0000ms, 0451ms total)
T79C8 000:698 JLINK_SetBPEx(Addr = 0x20000000, Type = 0xFFFFFFF2)  returns 0x00000008 (0000ms, 0451ms total)
T79C8 000:698 JLINK_Go() -- CPU_ReadMem(4 bytes @ 0xE0001000) -- CPU_WriteMem(4 bytes @ 0xE0001000) (0003ms, 0454ms total)
T79C8 000:701 JLINK_IsHalted()  returns FALSE (0001ms, 0455ms total)
T79C8 000:704 JLINK_IsHalted()  returns FALSE (0000ms, 0454ms total)
T79C8 000:707 JLINK_IsHalted()  returns FALSE (0000ms, 0454ms total)
T79C8 000:709 JLINK_IsHalted() -- CPU_ReadMem(2 bytes @ 0x20000000)  returns TRUE (0004ms, 0458ms total)
T79C8 000:713 JLINK_ReadReg(R15 (PC))  returns 0x20000000 (0000ms, 0454ms total)
T79C8 000:713 JLINK_ClrBPEx(BPHandle = 0x00000008)  returns 0x00 (0000ms, 0454ms total)
T79C8 000:713 JLINK_ReadReg(R0)  returns 0x00000000 (0000ms, 0454ms total)
T79C8 000:714 JLINK_WriteMem(0x2000014C, 0x0200 Bytes, ...) - Data: 42 60 41 80 01 22 05 49 52 06 0A 62 02 22 82 5E ... -- CPU_WriteMem(512 bytes @ 0x2000014C)  returns 0x200 (0004ms, 0458ms total)
T79C8 000:718 JLINK_WriteReg(R0, 0x00000800)  returns 0x00 (0000ms, 0458ms total)
T79C8 000:718 JLINK_WriteReg(R1, 0x00000200)  returns 0x00 (0000ms, 0458ms total)
T79C8 000:718 JLINK_WriteReg(R2, 0x2000014C)  returns 0x00 (0001ms, 0459ms total)
T79C8 000:719 JLINK_WriteReg(R3, 0x00000000)  returns 0x00 (0000ms, 0459ms total)
T79C8 000:719 JLINK_WriteReg(R4, 0x00000000)  returns 0x00 (0000ms, 0459ms total)
T79C8 000:719 JLINK_WriteReg(R5, 0x00000000)  returns 0x00 (0000ms, 0459ms total)
T79C8 000:719 JLINK_WriteReg(R6, 0x00000000)  returns 0x00 (0000ms, 0459ms total)
T79C8 000:719 JLINK_WriteReg(R7, 0x00000000)  returns 0x00 (0000ms, 0459ms total)
T79C8 000:719 JLINK_WriteReg(R8, 0x00000000)  returns 0x00 (0000ms, 0459ms total)
T79C8 000:719 JLINK_WriteReg(R9, 0x20000148)  returns 0x00 (0000ms, 0459ms total)
T79C8 000:719 JLINK_WriteReg(R10, 0x00000000)  returns 0x00 (0000ms, 0459ms total)
T79C8 000:719 JLINK_WriteReg(R11, 0x00000000)  returns 0x00 (0000ms, 0459ms total)
T79C8 000:719 JLINK_WriteReg(R12, 0x00000000)  returns 0x00 (0000ms, 0459ms total)
T79C8 000:719 JLINK_WriteReg(R13 (SP), 0x20001000)  returns 0x00 (0000ms, 0459ms total)
T79C8 000:719 JLINK_WriteReg(R14, 0x20000001)  returns 0x00 (0000ms, 0459ms total)
T79C8 000:719 JLINK_WriteReg(R15 (PC), 0x200000D8)  returns 0x00 (0000ms, 0459ms total)
T79C8 000:719 JLINK_WriteReg(XPSR, 0x01000000)  returns 0x00 (0000ms, 0459ms total)
T79C8 000:719 JLINK_WriteReg(MSP, 0x20001000)  returns 0x00 (0000ms, 0459ms total)
T79C8 000:719 JLINK_WriteReg(PSP, 0x20001000)  returns 0x00 (0000ms, 0459ms total)
T79C8 000:719 JLINK_WriteReg(CFBP, 0x00000000)  returns 0x00 (0000ms, 0459ms total)
T79C8 000:719 JLINK_SetBPEx(Addr = 0x20000000, Type = 0xFFFFFFF2)  returns 0x00000009 (0000ms, 0459ms total)
T79C8 000:719 JLINK_Go() -- CPU_ReadMem(4 bytes @ 0xE0001000) -- CPU_WriteMem(4 bytes @ 0xE0001000) (0003ms, 0462ms total)
T79C8 000:722 JLINK_IsHalted()  returns FALSE (0002ms, 0464ms total)
T79C8 000:727 JLINK_IsHalted()  returns FALSE (0000ms, 0462ms total)
T79C8 000:731 JLINK_IsHalted() -- CPU_ReadMem(2 bytes @ 0x20000000)  returns TRUE (0004ms, 0466ms total)
T79C8 000:735 JLINK_ReadReg(R15 (PC))  returns 0x20000000 (0000ms, 0462ms total)
T79C8 000:735 JLINK_ClrBPEx(BPHandle = 0x00000009)  returns 0x00 (0000ms, 0462ms total)
T79C8 000:735 JLINK_ReadReg(R0)  returns 0x00000000 (0000ms, 0462ms total)
T79C8 000:736 JLINK_WriteMem(0x2000014C, 0x0200 Bytes, ...) - Data: 02 99 80 B2 09 6A 88 80 6A 8B 01 99 03 92 49 88 ... -- CPU_WriteMem(512 bytes @ 0x2000014C)  returns 0x200 (0005ms, 0467ms total)
T79C8 000:741 JLINK_WriteReg(R0, 0x00000A00)  returns 0x00 (0000ms, 0467ms total)
T79C8 000:741 JLINK_WriteReg(R1, 0x00000200)  returns 0x00 (0000ms, 0467ms total)
T79C8 000:741 JLINK_WriteReg(R2, 0x2000014C)  returns 0x00 (0000ms, 0467ms total)
T79C8 000:741 JLINK_WriteReg(R3, 0x00000000)  returns 0x00 (0000ms, 0467ms total)
T79C8 000:741 JLINK_WriteReg(R4, 0x00000000)  returns 0x00 (0000ms, 0467ms total)
T79C8 000:741 JLINK_WriteReg(R5, 0x00000000)  returns 0x00 (0000ms, 0467ms total)
T79C8 000:741 JLINK_WriteReg(R6, 0x00000000)  returns 0x00 (0000ms, 0467ms total)
T79C8 000:741 JLINK_WriteReg(R7, 0x00000000)  returns 0x00 (0000ms, 0467ms total)
T79C8 000:741 JLINK_WriteReg(R8, 0x00000000)  returns 0x00 (0000ms, 0467ms total)
T79C8 000:741 JLINK_WriteReg(R9, 0x20000148)  returns 0x00 (0000ms, 0467ms total)
T79C8 000:741 JLINK_WriteReg(R10, 0x00000000)  returns 0x00 (0000ms, 0467ms total)
T79C8 000:741 JLINK_WriteReg(R11, 0x00000000)  returns 0x00 (0000ms, 0467ms total)
T79C8 000:741 JLINK_WriteReg(R12, 0x00000000)  returns 0x00 (0000ms, 0467ms total)
T79C8 000:741 JLINK_WriteReg(R13 (SP), 0x20001000)  returns 0x00 (0000ms, 0467ms total)
T79C8 000:741 JLINK_WriteReg(R14, 0x20000001)  returns 0x00 (0000ms, 0467ms total)
T79C8 000:741 JLINK_WriteReg(R15 (PC), 0x200000D8)  returns 0x00 (0000ms, 0467ms total)
T79C8 000:741 JLINK_WriteReg(XPSR, 0x01000000)  returns 0x00 (0000ms, 0467ms total)
T79C8 000:741 JLINK_WriteReg(MSP, 0x20001000)  returns 0x00 (0000ms, 0467ms total)
T79C8 000:741 JLINK_WriteReg(PSP, 0x20001000)  returns 0x00 (0000ms, 0467ms total)
T79C8 000:741 JLINK_WriteReg(CFBP, 0x00000000)  returns 0x00 (0000ms, 0467ms total)
T79C8 000:741 JLINK_SetBPEx(Addr = 0x20000000, Type = 0xFFFFFFF2)  returns 0x0000000A (0000ms, 0467ms total)
T79C8 000:741 JLINK_Go() -- CPU_ReadMem(4 bytes @ 0xE0001000) -- CPU_WriteMem(4 bytes @ 0xE0001000) (0003ms, 0470ms total)
T79C8 000:744 JLINK_IsHalted()  returns FALSE (0001ms, 0471ms total)
T79C8 000:747 JLINK_IsHalted()  returns FALSE (0000ms, 0470ms total)
T79C8 000:749 JLINK_IsHalted()  returns FALSE (0000ms, 0470ms total)
T79C8 000:751 JLINK_IsHalted() -- CPU_ReadMem(2 bytes @ 0x20000000)  returns TRUE (0004ms, 0474ms total)
T79C8 000:755 JLINK_ReadReg(R15 (PC))  returns 0x20000000 (0000ms, 0470ms total)
T79C8 000:755 JLINK_ClrBPEx(BPHandle = 0x0000000A)  returns 0x00 (0000ms, 0470ms total)
T79C8 000:755 JLINK_ReadReg(R0)  returns 0x00000000 (0000ms, 0470ms total)
T79C8 000:755 JLINK_WriteMem(0x2000014C, 0x0200 Bytes, ...) - Data: 03 F0 54 FF 01 46 0F 38 07 41 1E 20 41 1A 37 80 ... -- CPU_WriteMem(512 bytes @ 0x2000014C)  returns 0x200 (0004ms, 0474ms total)
T79C8 000:759 JLINK_WriteReg(R0, 0x00000C00)  returns 0x00 (0000ms, 0474ms total)
T79C8 000:759 JLINK_WriteReg(R1, 0x00000200)  returns 0x00 (0000ms, 0474ms total)
T79C8 000:759 JLINK_WriteReg(R2, 0x2000014C)  returns 0x00 (0000ms, 0474ms total)
T79C8 000:759 JLINK_WriteReg(R3, 0x00000000)  returns 0x00 (0000ms, 0474ms total)
T79C8 000:759 JLINK_WriteReg(R4, 0x00000000)  returns 0x00 (0000ms, 0474ms total)
T79C8 000:759 JLINK_WriteReg(R5, 0x00000000)  returns 0x00 (0000ms, 0474ms total)
T79C8 000:759 JLINK_WriteReg(R6, 0x00000000)  returns 0x00 (0000ms, 0474ms total)
T79C8 000:759 JLINK_WriteReg(R7, 0x00000000)  returns 0x00 (0000ms, 0474ms total)
T79C8 000:759 JLINK_WriteReg(R8, 0x00000000)  returns 0x00 (0000ms, 0474ms total)
T79C8 000:759 JLINK_WriteReg(R9, 0x20000148)  returns 0x00 (0000ms, 0474ms total)
T79C8 000:759 JLINK_WriteReg(R10, 0x00000000)  returns 0x00 (0000ms, 0474ms total)
T79C8 000:759 JLINK_WriteReg(R11, 0x00000000)  returns 0x00 (0000ms, 0474ms total)
T79C8 000:759 JLINK_WriteReg(R12, 0x00000000)  returns 0x00 (0000ms, 0474ms total)
T79C8 000:759 JLINK_WriteReg(R13 (SP), 0x20001000)  returns 0x00 (0000ms, 0474ms total)
T79C8 000:759 JLINK_WriteReg(R14, 0x20000001)  returns 0x00 (0000ms, 0474ms total)
T79C8 000:759 JLINK_WriteReg(R15 (PC), 0x200000D8)  returns 0x00 (0000ms, 0474ms total)
T79C8 000:759 JLINK_WriteReg(XPSR, 0x01000000)  returns 0x00 (0000ms, 0474ms total)
T79C8 000:759 JLINK_WriteReg(MSP, 0x20001000)  returns 0x00 (0000ms, 0474ms total)
T79C8 000:759 JLINK_WriteReg(PSP, 0x20001000)  returns 0x00 (0000ms, 0474ms total)
T79C8 000:759 JLINK_WriteReg(CFBP, 0x00000000)  returns 0x00 (0000ms, 0474ms total)
T79C8 000:759 JLINK_SetBPEx(Addr = 0x20000000, Type = 0xFFFFFFF2)  returns 0x0000000B (0000ms, 0474ms total)
T79C8 000:759 JLINK_Go() -- CPU_ReadMem(4 bytes @ 0xE0001000) -- CPU_WriteMem(4 bytes @ 0xE0001000) (0003ms, 0477ms total)
T79C8 000:762 JLINK_IsHalted()  returns FALSE (0002ms, 0479ms total)
T79C8 000:767 JLINK_IsHalted()  returns FALSE (0000ms, 0477ms total)
T79C8 000:769 JLINK_IsHalted() -- CPU_ReadMem(2 bytes @ 0x20000000)  returns TRUE (0004ms, 0481ms total)
T79C8 000:773 JLINK_ReadReg(R15 (PC))  returns 0x20000000 (0000ms, 0477ms total)
T79C8 000:773 JLINK_ClrBPEx(BPHandle = 0x0000000B)  returns 0x00 (0000ms, 0477ms total)
T79C8 000:773 JLINK_ReadReg(R0)  returns 0x00000000 (0000ms, 0477ms total)
T79C8 000:773 JLINK_WriteMem(0x2000014C, 0x0200 Bytes, ...) - Data: 08 1A 05 41 A5 81 03 B0 F0 BD 00 00 38 09 00 20 ... -- CPU_WriteMem(512 bytes @ 0x2000014C)  returns 0x200 (0005ms, 0482ms total)
T79C8 000:778 JLINK_WriteReg(R0, 0x00000E00)  returns 0x00 (0000ms, 0482ms total)
T79C8 000:778 JLINK_WriteReg(R1, 0x00000200)  returns 0x00 (0000ms, 0482ms total)
T79C8 000:778 JLINK_WriteReg(R2, 0x2000014C)  returns 0x00 (0000ms, 0482ms total)
T79C8 000:778 JLINK_WriteReg(R3, 0x00000000)  returns 0x00 (0000ms, 0482ms total)
T79C8 000:778 JLINK_WriteReg(R4, 0x00000000)  returns 0x00 (0000ms, 0482ms total)
T79C8 000:778 JLINK_WriteReg(R5, 0x00000000)  returns 0x00 (0000ms, 0482ms total)
T79C8 000:778 JLINK_WriteReg(R6, 0x00000000)  returns 0x00 (0000ms, 0482ms total)
T79C8 000:778 JLINK_WriteReg(R7, 0x00000000)  returns 0x00 (0000ms, 0482ms total)
T79C8 000:778 JLINK_WriteReg(R8, 0x00000000)  returns 0x00 (0000ms, 0482ms total)
T79C8 000:778 JLINK_WriteReg(R9, 0x20000148)  returns 0x00 (0000ms, 0482ms total)
T79C8 000:778 JLINK_WriteReg(R10, 0x00000000)  returns 0x00 (0000ms, 0482ms total)
T79C8 000:778 JLINK_WriteReg(R11, 0x00000000)  returns 0x00 (0000ms, 0482ms total)
T79C8 000:778 JLINK_WriteReg(R12, 0x00000000)  returns 0x00 (0000ms, 0482ms total)
T79C8 000:778 JLINK_WriteReg(R13 (SP), 0x20001000)  returns 0x00 (0000ms, 0482ms total)
T79C8 000:778 JLINK_WriteReg(R14, 0x20000001)  returns 0x00 (0000ms, 0482ms total)
T79C8 000:778 JLINK_WriteReg(R15 (PC), 0x200000D8)  returns 0x00 (0000ms, 0482ms total)
T79C8 000:778 JLINK_WriteReg(XPSR, 0x01000000)  returns 0x00 (0000ms, 0482ms total)
T79C8 000:778 JLINK_WriteReg(MSP, 0x20001000)  returns 0x00 (0000ms, 0482ms total)
T79C8 000:778 JLINK_WriteReg(PSP, 0x20001000)  returns 0x00 (0000ms, 0482ms total)
T79C8 000:778 JLINK_WriteReg(CFBP, 0x00000000)  returns 0x00 (0000ms, 0482ms total)
T79C8 000:778 JLINK_SetBPEx(Addr = 0x20000000, Type = 0xFFFFFFF2)  returns 0x0000000C (0000ms, 0482ms total)
T79C8 000:778 JLINK_Go() -- CPU_ReadMem(4 bytes @ 0xE0001000) -- CPU_WriteMem(4 bytes @ 0xE0001000) (0004ms, 0486ms total)
T79C8 000:782 JLINK_IsHalted()  returns FALSE (0001ms, 0487ms total)
T79C8 000:785 JLINK_IsHalted()  returns FALSE (0000ms, 0486ms total)
T79C8 000:787 JLINK_IsHalted()  returns FALSE (0000ms, 0486ms total)
T79C8 000:789 JLINK_IsHalted() -- CPU_ReadMem(2 bytes @ 0x20000000)  returns TRUE (0004ms, 0490ms total)
T79C8 000:793 JLINK_ReadReg(R15 (PC))  returns 0x20000000 (0000ms, 0486ms total)
T79C8 000:793 JLINK_ClrBPEx(BPHandle = 0x0000000C)  returns 0x00 (0000ms, 0486ms total)
T79C8 000:793 JLINK_ReadReg(R0)  returns 0x00000000 (0000ms, 0486ms total)
T79C8 000:794 JLINK_WriteMem(0x2000014C, 0x0200 Bytes, ...) - Data: 78 5D 00 00 00 C0 FF FF 70 47 00 00 F8 B5 04 46 ... -- CPU_WriteMem(512 bytes @ 0x2000014C)  returns 0x200 (0005ms, 0491ms total)
T79C8 000:799 JLINK_WriteReg(R0, 0x00001000)  returns 0x00 (0000ms, 0491ms total)
T79C8 000:799 JLINK_WriteReg(R1, 0x00000200)  returns 0x00 (0000ms, 0491ms total)
T79C8 000:799 JLINK_WriteReg(R2, 0x2000014C)  returns 0x00 (0000ms, 0491ms total)
T79C8 000:799 JLINK_WriteReg(R3, 0x00000000)  returns 0x00 (0000ms, 0491ms total)
T79C8 000:799 JLINK_WriteReg(R4, 0x00000000)  returns 0x00 (0000ms, 0491ms total)
T79C8 000:799 JLINK_WriteReg(R5, 0x00000000)  returns 0x00 (0000ms, 0491ms total)
T79C8 000:799 JLINK_WriteReg(R6, 0x00000000)  returns 0x00 (0000ms, 0491ms total)
T79C8 000:799 JLINK_WriteReg(R7, 0x00000000)  returns 0x00 (0000ms, 0491ms total)
T79C8 000:799 JLINK_WriteReg(R8, 0x00000000)  returns 0x00 (0000ms, 0491ms total)
T79C8 000:799 JLINK_WriteReg(R9, 0x20000148)  returns 0x00 (0000ms, 0491ms total)
T79C8 000:799 JLINK_WriteReg(R10, 0x00000000)  returns 0x00 (0000ms, 0491ms total)
T79C8 000:799 JLINK_WriteReg(R11, 0x00000000)  returns 0x00 (0000ms, 0491ms total)
T79C8 000:799 JLINK_WriteReg(R12, 0x00000000)  returns 0x00 (0000ms, 0491ms total)
T79C8 000:799 JLINK_WriteReg(R13 (SP), 0x20001000)  returns 0x00 (0000ms, 0491ms total)
T79C8 000:799 JLINK_WriteReg(R14, 0x20000001)  returns 0x00 (0000ms, 0491ms total)
T79C8 000:799 JLINK_WriteReg(R15 (PC), 0x200000D8)  returns 0x00 (0000ms, 0491ms total)
T79C8 000:799 JLINK_WriteReg(XPSR, 0x01000000)  returns 0x00 (0000ms, 0491ms total)
T79C8 000:799 JLINK_WriteReg(MSP, 0x20001000)  returns 0x00 (0000ms, 0491ms total)
T79C8 000:799 JLINK_WriteReg(PSP, 0x20001000)  returns 0x00 (0000ms, 0491ms total)
T79C8 000:799 JLINK_WriteReg(CFBP, 0x00000000)  returns 0x00 (0000ms, 0491ms total)
T79C8 000:799 JLINK_SetBPEx(Addr = 0x20000000, Type = 0xFFFFFFF2)  returns 0x0000000D (0000ms, 0491ms total)
T79C8 000:799 JLINK_Go() -- CPU_ReadMem(4 bytes @ 0xE0001000) -- CPU_WriteMem(4 bytes @ 0xE0001000) (0004ms, 0495ms total)
T79C8 000:803 JLINK_IsHalted()  returns FALSE (0001ms, 0496ms total)
T79C8 000:806 JLINK_IsHalted()  returns FALSE (0003ms, 0498ms total)
T79C8 000:811 JLINK_IsHalted() -- CPU_ReadMem(2 bytes @ 0x20000000)  returns TRUE (0004ms, 0499ms total)
T79C8 000:815 JLINK_ReadReg(R15 (PC))  returns 0x20000000 (0000ms, 0495ms total)
T79C8 000:815 JLINK_ClrBPEx(BPHandle = 0x0000000D)  returns 0x00 (0000ms, 0495ms total)
T79C8 000:815 JLINK_ReadReg(R0)  returns 0x00000000 (0000ms, 0495ms total)
T79C8 000:816 JLINK_WriteMem(0x2000014C, 0x0200 Bytes, ...) - Data: 4C 61 05 20 08 61 48 69 CA 14 10 43 48 61 20 48 ... -- CPU_WriteMem(512 bytes @ 0x2000014C)  returns 0x200 (0005ms, 0500ms total)
T79C8 000:821 JLINK_WriteReg(R0, 0x00001200)  returns 0x00 (0000ms, 0500ms total)
T79C8 000:821 JLINK_WriteReg(R1, 0x00000200)  returns 0x00 (0000ms, 0500ms total)
T79C8 000:821 JLINK_WriteReg(R2, 0x2000014C)  returns 0x00 (0000ms, 0500ms total)
T79C8 000:821 JLINK_WriteReg(R3, 0x00000000)  returns 0x00 (0000ms, 0500ms total)
T79C8 000:821 JLINK_WriteReg(R4, 0x00000000)  returns 0x00 (0000ms, 0500ms total)
T79C8 000:821 JLINK_WriteReg(R5, 0x00000000)  returns 0x00 (0000ms, 0500ms total)
T79C8 000:821 JLINK_WriteReg(R6, 0x00000000)  returns 0x00 (0000ms, 0500ms total)
T79C8 000:821 JLINK_WriteReg(R7, 0x00000000)  returns 0x00 (0000ms, 0500ms total)
T79C8 000:821 JLINK_WriteReg(R8, 0x00000000)  returns 0x00 (0000ms, 0500ms total)
T79C8 000:821 JLINK_WriteReg(R9, 0x20000148)  returns 0x00 (0000ms, 0500ms total)
T79C8 000:821 JLINK_WriteReg(R10, 0x00000000)  returns 0x00 (0000ms, 0500ms total)
T79C8 000:821 JLINK_WriteReg(R11, 0x00000000)  returns 0x00 (0000ms, 0500ms total)
T79C8 000:821 JLINK_WriteReg(R12, 0x00000000)  returns 0x00 (0000ms, 0500ms total)
T79C8 000:821 JLINK_WriteReg(R13 (SP), 0x20001000)  returns 0x00 (0000ms, 0500ms total)
T79C8 000:821 JLINK_WriteReg(R14, 0x20000001)  returns 0x00 (0000ms, 0500ms total)
T79C8 000:821 JLINK_WriteReg(R15 (PC), 0x200000D8)  returns 0x00 (0000ms, 0500ms total)
T79C8 000:821 JLINK_WriteReg(XPSR, 0x01000000)  returns 0x00 (0000ms, 0500ms total)
T79C8 000:821 JLINK_WriteReg(MSP, 0x20001000)  returns 0x00 (0000ms, 0500ms total)
T79C8 000:821 JLINK_WriteReg(PSP, 0x20001000)  returns 0x00 (0000ms, 0500ms total)
T79C8 000:821 JLINK_WriteReg(CFBP, 0x00000000)  returns 0x00 (0000ms, 0500ms total)
T79C8 000:821 JLINK_SetBPEx(Addr = 0x20000000, Type = 0xFFFFFFF2)  returns 0x0000000E (0000ms, 0500ms total)
T79C8 000:821 JLINK_Go() -- CPU_ReadMem(4 bytes @ 0xE0001000) -- CPU_WriteMem(4 bytes @ 0xE0001000) (0003ms, 0503ms total)
T79C8 000:824 JLINK_IsHalted()  returns FALSE (0001ms, 0504ms total)
T79C8 000:831 JLINK_IsHalted() -- CPU_ReadMem(2 bytes @ 0x20000000)  returns TRUE (0004ms, 0507ms total)
T79C8 000:835 JLINK_ReadReg(R15 (PC))  returns 0x20000000 (0000ms, 0503ms total)
T79C8 000:835 JLINK_ClrBPEx(BPHandle = 0x0000000E)  returns 0x00 (0000ms, 0503ms total)
T79C8 000:835 JLINK_ReadReg(R0)  returns 0x00000000 (0000ms, 0503ms total)
T79C8 000:836 JLINK_WriteMem(0x2000014C, 0x0200 Bytes, ...) - Data: 01 43 51 62 06 E0 09 48 01 43 11 62 02 E0 08 20 ... -- CPU_WriteMem(512 bytes @ 0x2000014C)  returns 0x200 (0004ms, 0507ms total)
T79C8 000:840 JLINK_WriteReg(R0, 0x00001400)  returns 0x00 (0000ms, 0507ms total)
T79C8 000:840 JLINK_WriteReg(R1, 0x00000200)  returns 0x00 (0000ms, 0507ms total)
T79C8 000:840 JLINK_WriteReg(R2, 0x2000014C)  returns 0x00 (0000ms, 0507ms total)
T79C8 000:840 JLINK_WriteReg(R3, 0x00000000)  returns 0x00 (0000ms, 0507ms total)
T79C8 000:840 JLINK_WriteReg(R4, 0x00000000)  returns 0x00 (0000ms, 0507ms total)
T79C8 000:840 JLINK_WriteReg(R5, 0x00000000)  returns 0x00 (0000ms, 0507ms total)
T79C8 000:840 JLINK_WriteReg(R6, 0x00000000)  returns 0x00 (0000ms, 0507ms total)
T79C8 000:840 JLINK_WriteReg(R7, 0x00000000)  returns 0x00 (0000ms, 0507ms total)
T79C8 000:840 JLINK_WriteReg(R8, 0x00000000)  returns 0x00 (0000ms, 0507ms total)
T79C8 000:840 JLINK_WriteReg(R9, 0x20000148)  returns 0x00 (0000ms, 0507ms total)
T79C8 000:840 JLINK_WriteReg(R10, 0x00000000)  returns 0x00 (0000ms, 0507ms total)
T79C8 000:840 JLINK_WriteReg(R11, 0x00000000)  returns 0x00 (0001ms, 0508ms total)
T79C8 000:841 JLINK_WriteReg(R12, 0x00000000)  returns 0x00 (0000ms, 0508ms total)
T79C8 000:841 JLINK_WriteReg(R13 (SP), 0x20001000)  returns 0x00 (0000ms, 0508ms total)
T79C8 000:841 JLINK_WriteReg(R14, 0x20000001)  returns 0x00 (0000ms, 0508ms total)
T79C8 000:841 JLINK_WriteReg(R15 (PC), 0x200000D8)  returns 0x00 (0000ms, 0508ms total)
T79C8 000:841 JLINK_WriteReg(XPSR, 0x01000000)  returns 0x00 (0000ms, 0508ms total)
T79C8 000:841 JLINK_WriteReg(MSP, 0x20001000)  returns 0x00 (0000ms, 0508ms total)
T79C8 000:841 JLINK_WriteReg(PSP, 0x20001000)  returns 0x00 (0000ms, 0508ms total)
T79C8 000:841 JLINK_WriteReg(CFBP, 0x00000000)  returns 0x00 (0000ms, 0508ms total)
T79C8 000:841 JLINK_SetBPEx(Addr = 0x20000000, Type = 0xFFFFFFF2)  returns 0x0000000F (0000ms, 0508ms total)
T79C8 000:841 JLINK_Go() -- CPU_ReadMem(4 bytes @ 0xE0001000) -- CPU_WriteMem(4 bytes @ 0xE0001000) (0004ms, 0512ms total)
T79C8 000:845 JLINK_IsHalted()  returns FALSE (0001ms, 0513ms total)
T79C8 000:848 JLINK_IsHalted()  returns FALSE (0001ms, 0513ms total)
T79C8 000:851 JLINK_IsHalted() -- CPU_ReadMem(2 bytes @ 0x20000000)  returns TRUE (0004ms, 0516ms total)
T79C8 000:855 JLINK_ReadReg(R15 (PC))  returns 0x20000000 (0000ms, 0512ms total)
T79C8 000:855 JLINK_ClrBPEx(BPHandle = 0x0000000F)  returns 0x00 (0000ms, 0512ms total)
T79C8 000:855 JLINK_ReadReg(R0)  returns 0x00000000 (0000ms, 0512ms total)
T79C8 000:856 JLINK_WriteMem(0x2000014C, 0x0200 Bytes, ...) - Data: 00 98 01 F0 0F FA 0D E0 01 98 29 49 80 8D 88 42 ... -- CPU_WriteMem(512 bytes @ 0x2000014C)  returns 0x200 (0005ms, 0517ms total)
T79C8 000:861 JLINK_WriteReg(R0, 0x00001600)  returns 0x00 (0000ms, 0517ms total)
T79C8 000:861 JLINK_WriteReg(R1, 0x00000200)  returns 0x00 (0000ms, 0517ms total)
T79C8 000:861 JLINK_WriteReg(R2, 0x2000014C)  returns 0x00 (0000ms, 0517ms total)
T79C8 000:861 JLINK_WriteReg(R3, 0x00000000)  returns 0x00 (0000ms, 0517ms total)
T79C8 000:861 JLINK_WriteReg(R4, 0x00000000)  returns 0x00 (0000ms, 0517ms total)
T79C8 000:861 JLINK_WriteReg(R5, 0x00000000)  returns 0x00 (0000ms, 0517ms total)
T79C8 000:861 JLINK_WriteReg(R6, 0x00000000)  returns 0x00 (0000ms, 0517ms total)
T79C8 000:861 JLINK_WriteReg(R7, 0x00000000)  returns 0x00 (0000ms, 0517ms total)
T79C8 000:861 JLINK_WriteReg(R8, 0x00000000)  returns 0x00 (0000ms, 0517ms total)
T79C8 000:861 JLINK_WriteReg(R9, 0x20000148)  returns 0x00 (0000ms, 0517ms total)
T79C8 000:861 JLINK_WriteReg(R10, 0x00000000)  returns 0x00 (0000ms, 0517ms total)
T79C8 000:861 JLINK_WriteReg(R11, 0x00000000)  returns 0x00 (0000ms, 0517ms total)
T79C8 000:861 JLINK_WriteReg(R12, 0x00000000)  returns 0x00 (0000ms, 0517ms total)
T79C8 000:861 JLINK_WriteReg(R13 (SP), 0x20001000)  returns 0x00 (0001ms, 0518ms total)
T79C8 000:862 JLINK_WriteReg(R14, 0x20000001)  returns 0x00 (0000ms, 0518ms total)
T79C8 000:862 JLINK_WriteReg(R15 (PC), 0x200000D8)  returns 0x00 (0000ms, 0518ms total)
T79C8 000:862 JLINK_WriteReg(XPSR, 0x01000000)  returns 0x00 (0000ms, 0518ms total)
T79C8 000:862 JLINK_WriteReg(MSP, 0x20001000)  returns 0x00 (0000ms, 0518ms total)
T79C8 000:862 JLINK_WriteReg(PSP, 0x20001000)  returns 0x00 (0000ms, 0518ms total)
T79C8 000:862 JLINK_WriteReg(CFBP, 0x00000000)  returns 0x00 (0000ms, 0518ms total)
T79C8 000:862 JLINK_SetBPEx(Addr = 0x20000000, Type = 0xFFFFFFF2)  returns 0x00000010 (0000ms, 0518ms total)
T79C8 000:862 JLINK_Go() -- CPU_ReadMem(4 bytes @ 0xE0001000) -- CPU_WriteMem(4 bytes @ 0xE0001000) (0003ms, 0521ms total)
T79C8 000:865 JLINK_IsHalted()  returns FALSE (0001ms, 0522ms total)
T79C8 000:868 JLINK_IsHalted()  returns FALSE (0000ms, 0521ms total)
T79C8 000:870 JLINK_IsHalted()  returns FALSE (0000ms, 0521ms total)
T79C8 000:872 JLINK_IsHalted() -- CPU_ReadMem(2 bytes @ 0x20000000)  returns TRUE (0004ms, 0525ms total)
T79C8 000:876 JLINK_ReadReg(R15 (PC))  returns 0x20000000 (0000ms, 0521ms total)
T79C8 000:876 JLINK_ClrBPEx(BPHandle = 0x00000010)  returns 0x00 (0000ms, 0521ms total)
T79C8 000:876 JLINK_ReadReg(R0)  returns 0x00000000 (0000ms, 0521ms total)
T79C8 000:877 JLINK_WriteMem(0x2000014C, 0x0200 Bytes, ...) - Data: F7 5F 21 6D 60 6E 9F 42 03 DC 03 88 5B 1D 03 80 ... -- CPU_WriteMem(512 bytes @ 0x2000014C)  returns 0x200 (0004ms, 0525ms total)
T79C8 000:881 JLINK_WriteReg(R0, 0x00001800)  returns 0x00 (0000ms, 0525ms total)
T79C8 000:881 JLINK_WriteReg(R1, 0x00000200)  returns 0x00 (0000ms, 0525ms total)
T79C8 000:881 JLINK_WriteReg(R2, 0x2000014C)  returns 0x00 (0000ms, 0525ms total)
T79C8 000:881 JLINK_WriteReg(R3, 0x00000000)  returns 0x00 (0000ms, 0525ms total)
T79C8 000:881 JLINK_WriteReg(R4, 0x00000000)  returns 0x00 (0000ms, 0525ms total)
T79C8 000:881 JLINK_WriteReg(R5, 0x00000000)  returns 0x00 (0000ms, 0525ms total)
T79C8 000:882 JLINK_WriteReg(R6, 0x00000000)  returns 0x00 (0000ms, 0526ms total)
T79C8 000:882 JLINK_WriteReg(R7, 0x00000000)  returns 0x00 (0000ms, 0526ms total)
